{
    "COM4": {
        "即时采样/立即测量": {
            "cmd": "01 06 00 00 00 01 48 0A",
            "select_times": "5"
        },
        "启动清洗/反吹": {
            "cmd": "01 06 00 00 00 1E 09 C2",
            "select_times": "10"
        },
        "比对采样": {
            "cmd": "01 06 00 00 00 02 08 0B",
            "select_times": "15"
        },
        "零点校准/量程校准": {
            "cmd": "01 06 00 00 00 0B C8 0D",
            "select_times": "0"
        }
    },
    "COM5": {
        "即时采样/立即测量": {
            "cmd": "01 06 00 00 00 01 48 0A",
            "select_times": "5"
        },
        "启动清洗/反吹": {
            "cmd": "01 06 00 00 00 1E 09 C2",
            "select_times": "10"
        },
        "比对采样": {
            "cmd": "01 06 00 00 00 02 08 0B",
            "select_times": "15"
        },
        "零点校准/量程校准": {
            "cmd": "01 06 00 00 00 0B C8 0D",
            "select_times": "0"
        }
    }
}
